Time [s],Packet ID,Address,Data,Read/Write,ACK/NAK
0.947304000000000,0,0x46,0x13,Write,ACK
0.949320250000000,0,0x46,0x00,Write,ACK
0.954362250000000,1,0x46,0xDF,Read,NAK
0.958419500000000,2,0x46,0x09,Write,ACK
0.960446250000000,2,0x46,0x00,Write,ACK
1.017995750000000,3,0x53,0x33,Write,ACK
1.020715000000000,4,0x53,0x0B,Read,NAK
1.024194250000000,5,0x46,0x13,Write,ACK
1.026287750000000,5,0x46,0x0B,Write,ACK
2.171362000000000,6,0x46,0x00,Write,ACK
2.172711000000000,6,0x46,0x00,Write,ACK
2.219303750000000,7,0x46,0x08,Write,ACK
2.220825500000000,7,0x46,0xE4,Write,ACK
2.264816750000000,8,0x46,0x12,Write,ACK
2.266333250000000,8,0x46,0xC9,Write,ACK
13.157961250000000,9,0x53,0x00,Write,ACK
13.162000500000000,10,0x53,0xAF,Read,ACK
13.163429250000000,10,0x53,0x22,Read,ACK
13.164962750000001,10,0x53,0x4A,Read,ACK
13.166358000000001,10,0x53,0xF1,Read,ACK
13.167809500000001,10,0x53,0x94,Read,ACK
13.169438000000000,10,0x53,0xC9,Read,ACK
13.170859000000000,10,0x53,0xB1,Read,ACK
13.172284749999999,10,0x53,0x23,Read,ACK
13.173709499999999,10,0x53,0x4C,Read,ACK
13.175243000000000,10,0x53,0xEF,Read,NAK
13.234236250000000,11,0x53,0x0A,Write,ACK
13.238187999999999,12,0x53,0x93,Read,ACK
13.239716250000001,12,0x53,0xCA,Read,ACK
13.241168000000000,12,0x53,0xB0,Read,ACK
13.242568250000000,12,0x53,0x29,Read,ACK
13.244047249999999,12,0x53,0x4C,Read,ACK
13.245634250000000,12,0x53,0xEB,Read,ACK
13.247063000000001,12,0x53,0x91,Read,ACK
13.248467750000000,12,0x53,0xCA,Read,ACK
13.249991500000000,12,0x53,0xBC,Read,ACK
13.251443000000000,12,0x53,0xFF,Read,NAK
13.310295000000000,13,0x53,0x14,Write,ACK
13.314334750000000,14,0x53,0x00,Read,ACK
13.315756750000000,14,0x53,0x0A,Read,ACK
13.317162500000000,14,0x53,0x80,Read,ACK
13.318581500000001,14,0x53,0xFF,Read,ACK
13.320141500000000,14,0x53,0x00,Read,ACK
13.321651500000000,14,0x53,0x7F,Read,ACK
13.323050250000000,14,0x53,0x00,Read,ACK
13.324631000000000,14,0x53,0x7F,Read,ACK
13.326031250000000,14,0x53,0x80,Read,ACK
13.327436750000000,14,0x53,0xFF,Read,NAK
13.386291249999999,15,0x53,0x1E,Write,ACK
13.390354000000000,16,0x53,0x80,Read,ACK
13.391776500000001,16,0x53,0xFF,Read,ACK
13.393208250000001,16,0x53,0x80,Read,ACK
13.394735250000000,16,0x53,0xFF,Read,ACK
13.396136750000000,16,0x53,0x80,Read,ACK
13.397692500000000,16,0x53,0xFF,Read,ACK
13.399207000000001,16,0x53,0x00,Read,ACK
13.400631000000001,16,0x53,0x7F,Read,ACK
13.402049999999999,16,0x53,0xFF,Read,ACK
13.403481500000000,16,0x53,0x05,Read,NAK
13.462299750000000,17,0x53,0x28,Write,ACK
13.466362250000000,18,0x53,0x98,Read,ACK
13.467764250000000,18,0x53,0x88,Read,ACK
13.469276750000001,18,0x53,0x88,Read,ACK
13.470739999999999,18,0x53,0x97,Read,ACK
13.472146499999999,18,0x53,0x78,Read,ACK
13.473657500000000,18,0x53,0x80,Read,ACK
13.475209000000000,18,0x53,0x9E,Read,ACK
13.476640500000000,18,0x53,0xC0,Read,ACK
13.478038750000000,18,0x53,0xC1,Read,ACK
13.479569000000000,18,0x53,0x41,Read,NAK
13.538224749999999,19,0x53,0x32,Write,ACK
13.542261750000000,20,0x53,0x40,Read,ACK
13.543710500000000,20,0x53,0x0B,Read,ACK
13.545246250000000,20,0x53,0xFF,Read,ACK
13.546645249999999,20,0x53,0x05,Read,ACK
13.548070750000001,20,0x53,0xA9,Read,ACK
13.549740249999999,20,0x53,0x97,Read,ACK
13.551142250000000,20,0x53,0x97,Read,ACK
13.552543999999999,20,0x53,0x97,Read,ACK
13.554099500000000,20,0x53,0x78,Read,ACK
13.555524249999999,20,0x53,0x80,Read,NAK
13.614375750000001,21,0x53,0x3C,Write,ACK
13.618305500000000,22,0x53,0xFF,Read,ACK
13.619837000000000,22,0x53,0x5A,Read,ACK
13.621262750000000,22,0x53,0x33,Read,ACK
13.622687750000001,22,0x53,0xFF,Read,ACK
13.624203000000000,22,0x53,0xFF,Read,ACK
13.625728000000001,22,0x53,0xFF,Read,ACK
13.627176750000000,22,0x53,0xFF,Read,ACK
13.628583750000001,22,0x53,0xFF,Read,ACK
13.630111500000000,22,0x53,0xFF,Read,ACK
13.631537000000000,22,0x53,0xFF,Read,NAK
13.690421499999999,23,0x53,0x46,Write,ACK
13.694458750000001,24,0x53,0xFF,Read,ACK
13.695887500000000,24,0x53,0xFF,Read,ACK
13.697292250000000,24,0x53,0xFF,Read,ACK
13.698687250000001,24,0x53,0xFF,Read,ACK
13.700267500000001,24,0x53,0xFF,Read,ACK
13.701781499999999,24,0x53,0xFF,Read,ACK
13.703184500000001,24,0x53,0xFF,Read,ACK
13.704739000000000,24,0x53,0xFF,Read,ACK
13.706163750000000,24,0x53,0xFF,Read,ACK
13.707568500000001,24,0x53,0xFF,Read,NAK
13.766418249999999,25,0x53,0x50,Write,ACK
13.770480250000000,26,0x53,0xFF,Read,ACK
13.771879000000000,26,0x53,0xFF,Read,ACK
13.773330750000000,26,0x53,0xFF,Read,ACK
13.774859749999999,26,0x53,0xFF,Read,ACK
13.776265250000000,26,0x53,0xFF,Read,ACK
13.777801000000000,26,0x53,0xFF,Read,ACK
13.779358500000001,26,0x53,0xFF,Read,ACK
13.780763250000000,26,0x53,0xFF,Read,ACK
13.782158500000000,26,0x53,0xFF,Read,ACK
13.783609750000000,26,0x53,0xFF,Read,NAK
13.842360500000000,27,0x53,0x5A,Write,ACK
13.846417250000000,28,0x53,0xFF,Read,ACK
13.847821000000000,28,0x53,0xFF,Read,NAK
13.906480500000001,29,0x46,0x01,Write,ACK
13.907821250000000,29,0x46,0x98,Write,ACK
13.951985499999999,30,0x46,0x02,Write,ACK
13.953329999999999,30,0x46,0x88,Write,ACK
13.997490000000001,31,0x46,0x03,Write,ACK
13.998907500000000,31,0x46,0x88,Write,ACK
14.042985000000000,32,0x46,0x04,Write,ACK
14.044455500000000,32,0x46,0x97,Write,ACK
14.088487750000001,33,0x46,0x05,Write,ACK
14.089954499999999,33,0x46,0x78,Write,ACK
14.134022750000000,34,0x46,0x06,Write,ACK
14.135381000000001,34,0x46,0x80,Write,ACK
14.179416000000000,35,0x46,0x07,Write,ACK
14.180903000000001,35,0x46,0xB0,Write,ACK
14.225031500000000,36,0x46,0x08,Write,ACK
14.226376000000000,36,0x46,0xEF,Write,ACK
14.270544500000000,37,0x46,0x09,Write,ACK
14.271886250000000,37,0x46,0x49,Write,ACK
14.318391249999999,38,0x46,0x0A,Write,ACK
14.319865249999999,38,0x46,0x9E,Write,ACK
14.363999750000000,39,0x46,0x0B,Write,ACK
14.365366249999999,39,0x46,0x93,Write,ACK
14.409512500000000,40,0x46,0x0C,Write,ACK
14.410861250000000,40,0x46,0xCA,Write,ACK
14.454986999999999,41,0x46,0x0D,Write,ACK
14.456333000000001,41,0x46,0x09,Write,ACK
14.500367750000001,42,0x46,0x0E,Write,ACK
14.501709249999999,42,0x46,0xC0,Write,ACK
14.545847000000000,43,0x46,0x0F,Write,ACK
14.547190750000000,43,0x46,0xC1,Write,ACK
14.591354500000000,44,0x46,0x10,Write,ACK
14.592705000000000,44,0x46,0x40,Write,ACK
14.636859500000000,45,0x46,0x11,Write,ACK
14.638209000000000,45,0x46,0x09,Write,ACK
14.682369749999999,46,0x46,0x12,Write,ACK
14.683790249999999,46,0x46,0x7D,Write,ACK
14.727889500000000,47,0x46,0x00,Write,ACK
14.729362000000000,47,0x46,0xFF,Write,ACK
