Time [s], Analyzer Name, Decoded Protocol Result
0.000004000000000,I2C,Setup Write to [0x46] + ACK
0.000950937500000,I2C,0x13 + ACK
0.003023187500000,I2C,0x00 + ACK
0.005533062500000,I2C,Setup Read to [0x46] + ACK
0.007970062500000,I2C,0xDF + NAK
0.010911312500000,I2C,Setup Write to [0x46] + ACK
0.011829062500000,I2C,0x09 + ACK
0.013931875000000,I2C,0x00 + ACK
0.068851750000000,I2C,Setup Write to [0x53] + ACK
0.069750062500000,I2C,0x33 + ACK
0.071060000000000,I2C,Setup Read to [0x53] + ACK
0.072292375000000,I2C,0x0B + NAK
0.074898875000000,I2C,Setup Write to [0x46] + ACK
0.075798437500000,I2C,0x13 + ACK
0.077837062500000,I2C,0x0B + ACK
1.219960312500000,I2C,Setup Write to [0x46] + ACK
1.223594375000000,I2C,0x00 + ACK
1.224938625000000,I2C,0x00 + ACK
1.266029187500000,I2C,Setup Write to [0x46] + ACK
1.269682375000000,I2C,0x12 + ACK
1.270983000000000,I2C,0xC9 + ACK
11.719883125000001,I2C,Setup Write to [0x53] + ACK
11.721314250000001,I2C,0x00 + ACK
11.723248625000000,I2C,Setup Read to [0x53] + ACK
11.725191312500000,I2C,0xB3 + ACK
11.726600124999999,I2C,0x2E + ACK
11.727978374999999,I2C,0x48 + ACK
11.729364250000000,I2C,0xEC + ACK
11.730855937499999,I2C,0x9E + ACK
11.732225124999999,I2C,0xD2 + ACK
11.733712000000001,I2C,0xB4 + ACK
11.735189062500000,I2C,0x2E + ACK
11.736593937500000,I2C,0x4B + ACK
11.737976062500000,I2C,0xE8 + NAK
11.796725125000000,I2C,Setup Write to [0x53] + ACK
11.798029812499999,I2C,0x0A + ACK
11.799978437500000,I2C,Setup Read to [0x53] + ACK
11.801943937500001,I2C,0x9D + ACK
11.803326125000000,I2C,0xD3 + ACK
11.804708124999999,I2C,0xB3 + ACK
11.806203562500000,I2C,0x34 + ACK
11.807568874999999,I2C,0x4B + ACK
11.808948812500001,I2C,0xE6 + ACK
11.810567187500000,I2C,0x9E + ACK
11.811940687500000,I2C,0xD2 + ACK
11.813318937500000,I2C,0xAD + ACK
11.814704812500000,I2C,0xFF + NAK
11.871684750000000,I2C,Setup Write to [0x53] + ACK
11.872994187500000,I2C,0x14 + ACK
11.874921499999999,I2C,Setup Read to [0x53] + ACK
11.876905750000001,I2C,0x00 + ACK
11.878275437499999,I2C,0x0A + ACK
11.879651000000001,I2C,0x80 + ACK
11.881163812500001,I2C,0xFF + ACK
11.882532875000001,I2C,0x00 + ACK
11.883915500000001,I2C,0x7F + ACK
11.885471812500001,I2C,0x00 + ACK
11.886900000000001,I2C,0x7F + ACK
11.888264749999999,I2C,0x80 + ACK
11.889645187499999,I2C,0xFF + NAK
11.948402562500000,I2C,Setup Write to [0x53] + ACK
11.949720687499999,I2C,0x1E + ACK
11.951775874999999,I2C,Setup Read to [0x53] + ACK
11.953616875000000,I2C,0x80 + ACK
11.955001375000000,I2C,0xFF + ACK
11.956505312499999,I2C,0x80 + ACK
11.957879312499999,I2C,0xFF + ACK
11.959257062500001,I2C,0x80 + ACK
11.960746562500001,I2C,0xFF + ACK
11.962241312500000,I2C,0x00 + ACK
11.963611000000000,I2C,0x7F + ACK
11.964990687500000,I2C,0xFF + ACK
11.966499562499999,I2C,0x05 + NAK
12.025198375000000,I2C,Setup Write to [0x53] + ACK
12.026555562500000,I2C,0x28 + ACK
12.028497500000000,I2C,Setup Read to [0x53] + ACK
12.030412999999999,I2C,0x89 + ACK
12.031858000000000,I2C,0x7D + ACK
12.033227062500000,I2C,0x7E + ACK
12.034609750000000,I2C,0x83 + ACK
12.036094374999999,I2C,0x82 + ACK
12.037601062500000,I2C,0x64 + ACK
12.038965875000001,I2C,0x9E + ACK
12.040414250000000,I2C,0xBD + ACK
12.041854312500000,I2C,0xCC + ACK
12.043228250000000,I2C,0x54 + NAK
12.100251812500000,I2C,Setup Write to [0x53] + ACK
12.101598687499999,I2C,0x32 + ACK
12.103562875000000,I2C,Setup Read to [0x53] + ACK
12.105517750000001,I2C,0x40 + ACK
12.106899687500000,I2C,0x0B + ACK
12.108292062500000,I2C,0xFF + ACK
12.109657312500000,I2C,0x05 + ACK
12.111140499999999,I2C,0xA0 + ACK
12.112545812500001,I2C,0x98 + ACK
12.114027062500000,I2C,0x93 + ACK
12.115508562500001,I2C,0x83 + ACK
12.116894437499999,I2C,0x82 + ACK
12.118282875000000,I2C,0x64 + NAK
12.176952625000000,I2C,Setup Write to [0x53] + ACK
12.178293375000001,I2C,0x3C + ACK
12.180284187500000,I2C,Setup Read to [0x53] + ACK
12.182187937500000,I2C,0xFF + ACK
12.183576437499999,I2C,0x5A + ACK
12.184949562500000,I2C,0x33 + ACK
12.186424875000000,I2C,0xFF + ACK
12.187834062500000,I2C,0xFF + ACK
12.189203624999999,I2C,0xFF + ACK
12.190798812500001,I2C,0xFF + ACK
12.192180750000000,I2C,0xFF + ACK
12.193573125000000,I2C,0xFF + ACK
12.194938375000000,I2C,0xFF + NAK
12.253670937500001,I2C,Setup Write to [0x53] + ACK
12.254980000000000,I2C,0x46 + ACK
12.257009937499999,I2C,Setup Read to [0x53] + ACK
12.258890750000001,I2C,0xFF + ACK
12.260324062500001,I2C,0xFF + ACK
12.261739312500000,I2C,0xFF + ACK
12.263144562500001,I2C,0xFF + ACK
12.264518062500001,I2C,0xFF + ACK
12.266112312500001,I2C,0xFF + ACK
12.267498187499999,I2C,0xFF + ACK
12.268886687500000,I2C,0xFF + ACK
12.270323625000000,I2C,0xFF + ACK
12.271735000000000,I2C,0xFF + NAK
12.328715125000000,I2C,Setup Write to [0x53] + ACK
12.330106499999999,I2C,0x50 + ACK
12.332074062500000,I2C,Setup Read to [0x53] + ACK
12.333952999999999,I2C,0xFF + ACK
12.335425250000000,I2C,0xFF + ACK
12.336807937500000,I2C,0xFF + ACK
12.338189375000001,I2C,0xFF + ACK
12.339582249999999,I2C,0xFF + ACK
12.341050125000001,I2C,0xFF + ACK
12.342539437499999,I2C,0xFF + ACK
12.343944187500000,I2C,0xFF + ACK
12.345421500000000,I2C,0xFF + ACK
12.346799250000000,I2C,0xFF + NAK
12.405562687500000,I2C,Setup Write to [0x53] + ACK
12.406862937500000,I2C,0x5A + ACK
12.408809500000000,I2C,Setup Read to [0x53] + ACK
12.410779312500001,I2C,0xFF + ACK
12.412157062500000,I2C,0xFF + NAK
12.465607500000001,I2C,Setup Write to [0x46] + ACK
12.469133187500001,I2C,0x01 + ACK
12.470582687500000,I2C,0x89 + ACK
12.511768312499999,I2C,Setup Write to [0x46] + ACK
12.515417312500000,I2C,0x02 + ACK
12.516724999999999,I2C,0x7D + ACK
12.557732937500001,I2C,Setup Write to [0x46] + ACK
12.561386312500000,I2C,0x03 + ACK
12.562709500000000,I2C,0x7E + ACK
12.603831562500000,I2C,Setup Write to [0x46] + ACK
12.607477312500000,I2C,0x04 + ACK
12.608787875000001,I2C,0x83 + ACK
12.648217437500000,I2C,Setup Write to [0x46] + ACK
12.651862687500000,I2C,0x05 + ACK
12.653172562500000,I2C,0x82 + ACK
12.694278250000000,I2C,Setup Write to [0x46] + ACK
12.697912687500001,I2C,0x06 + ACK
12.699230249999999,I2C,0x64 + ACK
12.740465374999999,I2C,Setup Write to [0x46] + ACK
12.743990562500001,I2C,0x07 + ACK
12.745421374999999,I2C,0xB3 + ACK
12.786524125000000,I2C,Setup Write to [0x46] + ACK
12.790138312500000,I2C,0x08 + ACK
12.791493375000000,I2C,0xE6 + ACK
12.830898562500000,I2C,Setup Write to [0x46] + ACK
12.834449250000000,I2C,0x09 + ACK
12.835867875000000,I2C,0x4B + ACK
12.876871000000000,I2C,Setup Write to [0x46] + ACK
12.880503875000000,I2C,0x0A + ACK
12.881845062500000,I2C,0x9E + ACK
12.922944437500000,I2C,Setup Write to [0x46] + ACK
12.926596062500000,I2C,0x0B + ACK
12.927896000000000,I2C,0x9E + ACK
12.968996937500000,I2C,Setup Write to [0x46] + ACK
12.972652937499999,I2C,0x0C + ACK
12.973970812499999,I2C,0xD2 + ACK
13.015149437500000,I2C,Setup Write to [0x46] + ACK
13.018731187500000,I2C,0x0D + ACK
13.020104500000000,I2C,0x34 + ACK
13.059463812500001,I2C,Setup Write to [0x46] + ACK
13.063113875000001,I2C,0x0E + ACK
13.064417625000001,I2C,0xBD + ACK
13.105616187500001,I2C,Setup Write to [0x46] + ACK
13.109152249999999,I2C,0x0F + ACK
13.110564625000000,I2C,0xCC + ACK
13.151697312500000,I2C,Setup Write to [0x46] + ACK
13.155330562500000,I2C,0x10 + ACK
13.156656812500000,I2C,0x40 + ACK
13.197656312499999,I2C,Setup Write to [0x46] + ACK
13.201310812499999,I2C,0x11 + ACK
13.202625687499999,I2C,0x05 + ACK
13.243745000000001,I2C,Setup Write to [0x46] + ACK
13.247378312500000,I2C,0x12 + ACK
13.248720187500000,I2C,0x54 + ACK
13.288122687500000,I2C,Setup Write to [0x46] + ACK
13.291751500000000,I2C,0x00 + ACK
13.293099000000000,I2C,0xFF + ACK
